name,type,start_time,duration,"mosi","miso"
"SPI","enable",0.078052332,3.99999999e-09,,
"SPI","result",0.078221424,0.034919044,0x00,0xA5
"SPI","result",0.11825324,0.029405776,0x00,0x85
"SPI","result",0.1505405,0.030154936,0x00,0x00
"SPI","result",0.18395456,0.030057464,0x00,0x7F
"SPI","disable",0.221263204,3.99999999e-09,,
"SPI","enable",0.225984036,3.99999999e-09,,
"SPI","result",0.226153028,0.033421408,0x00,0xA5
"SPI","result",0.266148508,0.029413212,0x00,0x85
"SPI","result",0.298442512,0.030149632,0x00,0x00
"SPI","result",0.331474516,0.028982892,0x00,0x7F
"SPI","disable",0.367332672,4.00000005e-09,,
"SPI","enable",0.370897384,3.99999999e-09,,
"SPI","result",0.371066428,0.034529708,0x00,0xA5
"SPI","result",0.411086376,0.030492968,0x00,0x85
"SPI","result",0.44484046,0.028721288,0x00,0x00
"SPI","result",0.47644434,0.030449932,0x00,0x7F
"SPI","disable",0.5137696,3.99999999e-09,,
"SPI","enable",0.516963812,3.99999999e-09,,
"SPI","result",0.517132888,0.034904264,0x00,0xA5
"SPI","result",0.557510968,0.02904254,0x00,0x85
"SPI","result",0.589435556,0.030550512,0x00,0x00
"SPI","result",0.622868064,0.030427744,0x00,0x7F
"SPI","disable",0.660169852,3.99999999e-09,,
"SPI","enable",0.663364204,3.99999999e-09,,
"SPI","result",0.663533228,0.033429752,0x00,0xA5
"SPI","result",0.702074428,0.030860648,0x00,0x85
"SPI","result",0.735816456,0.030538396,0x00,0x00
"SPI","result",0.769236652,0.02859974,0x00,0x7F
"SPI","disable",0.805089144,3.99999999e-09,,
"SPI","enable",0.808283376,3.99999999e-09,,
"SPI","result",0.808452432,0.034890344,0x00,0xA5
"SPI","result",0.848455492,0.0308903,0x00,0x85
"SPI","result",0.882228344,0.0287162,0x00,0x00
"SPI","result",0.913826856,0.030414352,0x00,0x7F
"SPI","disable",0.951115312,3.99999999e-09,,
"SPI","enable",0.956215824,4.0000001e-09,,
"SPI","result",0.956384824,0.034915408,0x00,0xA5
"SPI","result",0.996412764,0.029048808,0x00,0x85
"SPI","result",1.02871448,0.030166304,0x00,0x00
"SPI","result",1.06176285,0.03044808,0x00,0x7F
"SPI","disable",1.09908658,4.00000022e-09,,
"SPI","enable",1.10265952,3.99999999e-09,,
"SPI","result",1.10282857,0.033073456,0x00,0xA5
"SPI","result",1.14137643,0.0304968,0x00,0x85
"SPI","result",1.17475531,0.030541504,0x00,0x10
"SPI","result",1.20817893,0.028980144,0x00,0x6F
"SPI","disable",1.2440339,4.00000022e-09,,
"SPI","enable",1.27652376,3.99999976e-09,,
"SPI","disable",1.27776449,3.99999999e-09,,
"SPI","enable",1.27782596,3.99999976e-09,,
"SPI","result",1.27785229,0.00031896,0x00,0xA5
"SPI","result",1.27821812,0.000278408,0x00,0x85
"SPI","result",1.27852293,0.000259956,0x00,0x10
"SPI","result",1.2788093,0.000274508,0x00,0x6F
"SPI","disable",1.27914804,3.99999999e-09,,
"SPI","enable",1.27929434,4.00000022e-09,,
"SPI","result",1.27949046,0.000299888,0x00,0x5A
"SPI","result",1.27985545,0.000315068,0x00,0x08
"SPI","result",1.28020594,0.000315208,0x00,0x90
"SPI","result",1.28055657,0.00029978,0x00,0xE0
"SPI","disable",1.28088948,3.99999976e-09,,
"SPI","enable",1.28094961,4.00000022e-09,,
"SPI","result",1.28095114,0.000315516,0x00,0xA5
"SPI","result",1.28131353,0.000278436,0x00,0x85
"SPI","result",1.28161838,0.000259944,0x00,0x10
"SPI","result",1.28190474,0.000274484,0x00,0x6F
"SPI","disable",1.28224344,3.99999999e-09,,
"SPI","enable",1.2829198,3.99999976e-09,,
"SPI","result",1.28292132,0.0003153,0x00,0xA5
"SPI","result",1.28328349,0.000278376,0x00,0x85
"SPI","result",1.28358827,0.000259912,0x00,0x10
"SPI","result",1.28387459,0.000274332,0x00,0x6F
"SPI","disable",1.28421314,3.99999999e-09,,
"SPI","enable",1.28790644,3.99999976e-09,,
"SPI","result",1.28790796,0.000315488,0x00,0xA5
"SPI","result",1.28827032,0.000262828,0x00,0x85
"SPI","result",1.28857514,0.000259924,0x00,0x10
"SPI","result",1.28886147,0.000274484,0x00,0x6F
"SPI","disable",1.28920018,3.99999976e-09,,
"SPI","enable",1.2928932,3.99999999e-09,,
"SPI","result",1.29289472,0.00031546,0x00,0xA5
"SPI","result",1.29325705,0.000262796,0x00,0x85
"SPI","result",1.29354625,0.000275428,0x00,0x10
"SPI","result",1.29384808,0.000258904,0x00,0x6F
"SPI","disable",1.29418679,4.00000022e-09,,
"SPI","enable",1.29788028,3.99999999e-09,,
"SPI","result",1.29788181,0.000315476,0x00,0xA5
"SPI","result",1.29824415,0.000262828,0x00,0x85
"SPI","result",1.29853339,0.00027552,0x00,0x10
"SPI","result",1.29883532,0.000258908,0x00,0x6F
"SPI","disable",1.29915844,3.99999999e-09,,
"SPI","enable",1.30286706,3.99999999e-09,,
"SPI","result",1.30286859,0.000299932,0x00,0xA5
"SPI","result",1.30321538,0.000278412,0x00,0x85
"SPI","result",1.3035202,0.000275524,0x00,0x10
"SPI","result",1.30382214,0.000258912,0x00,0x6F
"SPI","disable",1.30414527,3.99999999e-09,,
"SPI","enable",1.30785425,4.00000022e-09,,
"SPI","result",1.30785577,0.000299948,0x00,0xA5
"SPI","result",1.3082026,0.000278448,0x00,0x85
"SPI","result",1.30850746,0.000259956,0x00,0x10
"SPI","result",1.30880941,0.000258936,0x00,0x6F
"SPI","disable",1.30913257,3.99999976e-09,,
"SPI","enable",1.31285718,3.99999999e-09,,
"SPI","result",1.3128587,0.0002999,0x00,0xA5
"SPI","result",1.31320547,0.000278268,0x00,0x85
"SPI","result",1.31351015,0.000259956,0x00,0x10
"SPI","result",1.31379652,0.000274544,0x00,0x6F
"SPI","disable",1.3141353,3.99999999e-09,,
"SPI","enable",1.31782906,3.99999999e-09,,
"SPI","result",1.31783059,0.000315384,0x00,0xA5
"SPI","result",1.31819284,0.000278376,0x00,0x85
"SPI","result",1.31849762,0.00025994,0x00,0x10
"SPI","result",1.31878398,0.000274364,0x00,0x6F
"SPI","disable",1.31912256,3.99999999e-09,,
"SPI","enable",1.32281604,3.99999976e-09,,
"SPI","result",1.32281757,0.000315488,0x00,0xA5
"SPI","result",1.32317992,0.000262848,0x00,0x85
"SPI","result",1.32348476,0.00025996,0x00,0x10
"SPI","result",1.32377114,0.00027448,0x00,0x6F
"SPI","disable",1.32410984,3.99999999e-09,,
"SPI","enable",1.32780293,3.99999999e-09,,
"SPI","result",1.32780446,0.000315448,0x00,0xA5
"SPI","result",1.32816676,0.000262784,0x00,0x85
"SPI","result",1.32845595,0.00027534,0x00,0x10
"SPI","result",1.3287577,0.0002589,0x00,0x6F
"SPI","disable",1.3290964,4.00000022e-09,,
"SPI","enable",1.33278942,4.00000022e-09,,
"SPI","result",1.33279094,0.000315488,0x00,0xA5
"SPI","result",1.3331533,0.000262832,0x00,0x85
"SPI","result",1.33344255,0.000279752,0x00,0x10
"SPI","result",1.33374871,0.000258932,0x00,0x6F
"SPI","disable",1.33407186,3.99999999e-09,,
"SPI","enable",1.33777646,3.99999999e-09,,
"SPI","result",1.33777799,0.00029988,0x00,0xA5
"SPI","result",1.33812473,0.000278392,0x00,0x85
"SPI","result",1.33842953,0.000275516,0x00,0x10
"SPI","result",1.33873146,0.000258908,0x00,0x6F
"SPI","disable",1.33905458,4.00000022e-09,,
"SPI","enable",1.34276341,3.99999999e-09,,
"SPI","result",1.34276494,0.000299884,0x00,0xA5
"SPI","result",1.34311169,0.000278428,0x00,0x85
"SPI","result",1.34341653,0.000259972,0x00,0x10
"SPI","result",1.3437185,0.00025892,0x00,0x6F
"SPI","disable",1.34404163,3.99999999e-09,,
"SPI","enable",1.34776596,3.99999999e-09,,
"SPI","result",1.34776749,0.000299932,0x00,0xA5
"SPI","result",1.3481143,0.000278428,0x00,0x85
"SPI","result",1.34841914,0.000259968,0x00,0x10
"SPI","result",1.34870552,0.000274352,0x00,0x6F
"SPI","disable",1.3490441,3.99999999e-09,,
"SPI","enable",1.35273746,3.99999999e-09,,
"SPI","result",1.35273899,0.000315408,0x00,0xA5
"SPI","result",1.35310125,0.00027836,0x00,0x85
"SPI","result",1.35340602,0.000259908,0x00,0x10
"SPI","result",1.35369233,0.000274452,0x00,0x6F
"SPI","disable",1.354031,4.00000022e-09,,
"SPI","enable",1.35772388,3.99999999e-09,,
"SPI","result",1.3577254,0.00031548,0x00,0xA5
"SPI","result",1.35808775,0.000262828,0x00,0x85
"SPI","result",1.35839256,0.000259952,0x00,0x10
"SPI","result",1.35867893,0.000274488,0x00,0x6F
"SPI","disable",1.35901764,3.99999999e-09,,
"SPI","enable",1.36271059,3.99999999e-09,,
"SPI","result",1.36271212,0.000315304,0x00,0xA5
"SPI","result",1.36307429,0.000262828,0x00,0x85
"SPI","result",1.36336353,0.000275508,0x00,0x10
"SPI","result",1.36366544,0.000258912,0x00,0x6F
"SPI","disable",1.36400416,3.99999999e-09,,
"SPI","enable",1.36769732,3.99999976e-09,,
"SPI","result",1.36769885,0.000315464,0x00,0xA5
"SPI","result",1.36806119,0.00026282,0x00,0x85
"SPI","result",1.36835042,0.000275548,0x00,0x10
"SPI","result",1.36865238,0.000258904,0x00,0x6F
"SPI","disable",1.3689755,3.99999999e-09,,
"SPI","enable",1.3726841,3.99999976e-09,,
"SPI","result",1.37268562,0.000299836,0x00,0xA5
"SPI","result",1.37303231,0.000278208,0x00,0x85
"SPI","result",1.37333692,0.000275484,0x00,0x10
"SPI","result",1.37363881,0.000258868,0x00,0x6F
"SPI","disable",1.37396189,3.99999999e-09,,
"SPI","enable",1.3776704,3.99999999e-09,,
"SPI","result",1.37767192,0.00029984,0x00,0xA5
"SPI","result",1.37801863,0.000278232,0x00,0x85
"SPI","result",1.37832327,0.000259924,0x00,0x10
"SPI","result",1.37862518,0.000258856,0x00,0x6F
"SPI","disable",1.37894825,4.00000022e-09,,
"SPI","enable",1.38267242,4.00000022e-09,,
"SPI","result",1.38267395,0.000299868,0x00,0xA5
"SPI","result",1.38302068,0.000278376,0x00,0x85
"SPI","result",1.38332547,0.00025992,0x00,0x10
"SPI","result",1.3836118,0.00027432,0x00,0x6F
"SPI","disable",1.38395033,3.99999976e-09,,
"SPI","enable",1.3876435,4.00000022e-09,,
"SPI","result",1.38764503,0.00031544,0x00,0xA5
"SPI","result",1.38800733,0.000278388,0x00,0x85
"SPI","result",1.38831212,0.000259928,0x00,0x10
"SPI","result",1.38859846,0.000274488,0x00,0x6F
"SPI","disable",1.38893717,4.00000022e-09,,
"SPI","enable",1.39263022,3.99999999e-09,,
"SPI","result",1.39263174,0.000315468,0x00,0xA5
"SPI","result",1.39299408,0.000262836,0x00,0x85
"SPI","result",1.39329891,0.000259952,0x00,0x10
"SPI","result",1.39358527,0.0002745,0x00,0x6F
"SPI","disable",1.39392399,3.99999999e-09,,
"SPI","enable",1.39761729,4.00000022e-09,,
"SPI","result",1.39761881,0.000315312,0x00,0xA5
"SPI","result",1.39798099,0.000262832,0x00,0x85
"SPI","result",1.39827023,0.000275524,0x00,0x10
"SPI","result",1.39857216,0.000258932,0x00,0x6F
"SPI","disable",1.39891091,3.99999999e-09,,
"SPI","enable",1.40260473,3.99999999e-09,,
"SPI","result",1.40260626,0.000315516,0x00,0xA5
"SPI","result",1.40296865,0.000262864,0x00,0x85
"SPI","result",1.40325793,0.000275524,0x00,0x10
"SPI","result",1.40355986,0.000258924,0x00,0x6F
"SPI","disable",1.40388301,3.99999999e-09,,
"SPI","enable",1.40759192,3.99999999e-09,,
"SPI","result",1.40759345,0.000299888,0x00,0xA5
"SPI","result",1.4079402,0.000278432,0x00,0x85
"SPI","result",1.40824505,0.000275544,0x00,0x10
"SPI","result",1.40854701,0.000258952,0x00,0x6F
"SPI","disable",1.40887019,3.99999976e-09,,
"SPI","enable",1.41257902,3.99999976e-09,,
"SPI","result",1.41258055,0.000299872,0x00,0xA5
"SPI","result",1.41292728,0.000278404,0x00,0x85
"SPI","result",1.4132321,0.000259944,0x00,0x10
"SPI","result",1.41353403,0.000258896,0x00,0x6F
"SPI","disable",1.41385715,3.99999999e-09,,
"SPI","enable",1.41758128,4.00000022e-09,,
"SPI","result",1.4175828,0.000299844,0x00,0xA5
"SPI","result",1.4179295,0.000278388,0x00,0x85
"SPI","result",1.41823429,0.000259948,0x00,0x10
"SPI","result",1.41852065,0.00027436,0x00,0x6F
"SPI","disable",1.41885923,3.99999999e-09,,
"SPI","enable",1.42255249,3.99999976e-09,,
"SPI","result",1.42255401,0.000315468,0x00,0xA5
"SPI","result",1.42291634,0.000278408,0x00,0x85
"SPI","result",1.42322116,0.000259924,0x00,0x10
"SPI","result",1.4235075,0.000274472,0x00,0x6F
"SPI","disable",1.42384618,3.99999999e-09,,
"SPI","enable",1.42753925,3.99999999e-09,,
"SPI","result",1.42754077,0.000315448,0x00,0xA5
"SPI","result",1.42790308,0.000262804,0x00,0x85
"SPI","result",1.42820787,0.000259908,0x00,0x10
"SPI","result",1.42849418,0.00027444,0x00,0x6F
"SPI","disable",1.42883282,4.00000022e-09,,
"SPI","enable",1.43252585,3.99999999e-09,,
"SPI","result",1.43252737,0.000315308,0x00,0xA5
"SPI","result",1.43288954,0.000262812,0x00,0x85
"SPI","result",1.43317876,0.0002755,0x00,0x10
"SPI","result",1.43348067,0.000258932,0x00,0x6F
"SPI","disable",1.4338194,3.99999976e-09,,
"SPI","enable",1.43751263,3.99999999e-09,,
"SPI","result",1.43751416,0.000315468,0x00,0xA5
"SPI","result",1.4378765,0.000262816,0x00,0x85
"SPI","result",1.43816572,0.000275524,0x00,0x10
"SPI","result",1.43846766,0.000258888,0x00,0x6F
"SPI","disable",1.43879076,4.00000022e-09,,
"SPI","enable",1.44249948,3.99999976e-09,,
"SPI","result",1.44250101,0.000299916,0x00,0xA5
"SPI","result",1.44284779,0.000278408,0x00,0x85
"SPI","result",1.44315261,0.000275528,0x00,0x10
"SPI","result",1.44345454,0.000258908,0x00,0x6F
"SPI","disable",1.44377767,4.00000022e-09,,
"SPI","enable",1.44748655,3.99999999e-09,,
"SPI","result",1.44748807,0.000299924,0x00,0xA5
"SPI","result",1.44783486,0.000278432,0x00,0x85
"SPI","result",1.44813971,0.000259948,0x00,0x10
"SPI","result",1.44844164,0.000258912,0x00,0x6F
"SPI","disable",1.44876477,3.99999999e-09,,
"SPI","enable",1.45248873,3.99999999e-09,,
"SPI","result",1.45249025,0.00029986,0x00,0xA5
"SPI","result",1.45283697,0.000278356,0x00,0x85
"SPI","result",1.45314173,0.00025992,0x00,0x10
"SPI","result",1.45342806,0.000274316,0x00,0x6F
"SPI","disable",1.45376659,3.99999999e-09,,
"SPI","enable",1.45745986,4.00000022e-09,,
"SPI","result",1.45746139,0.00031544,0x00,0xA5
"SPI","result",1.4578237,0.000278404,0x00,0x85
"SPI","result",1.45812851,0.000259924,0x00,0x10
"SPI","result",1.45841484,0.000274476,0x00,0x6F
"SPI","disable",1.45875354,3.99999999e-09,,
"SPI","enable",1.46244653,4.00000022e-09,,
"SPI","result",1.46244806,0.000315456,0x00,0xA5
"SPI","result",1.46281038,0.000262812,0x00,0x85
"SPI","result",1.46311518,0.000259928,0x00,0x10
"SPI","result",1.46340152,0.000274476,0x00,0x6F
"SPI","disable",1.46374022,4.00000022e-09,,
"SPI","enable",1.46743292,3.99999999e-09,,
"SPI","result",1.46743445,0.000315276,0x00,0xA5
"SPI","result",1.46779658,0.00026278,0x00,0x85
"SPI","result",1.46808576,0.000275492,0x00,0x10
"SPI","result",1.46838766,0.000258876,0x00,0x6F
"SPI","disable",1.46872634,3.99999999e-09,,
"SPI","enable",1.47241952,3.99999976e-09,,
"SPI","result",1.47242104,0.000315424,0x00,0xA5
"SPI","result",1.47278333,0.000262796,0x00,0x85
"SPI","result",1.47307253,0.0002755,0x00,0x10
"SPI","result",1.47337444,0.000258888,0x00,0x6F
"SPI","disable",1.47369755,3.99999976e-09,,
"SPI","enable",1.4774061,4.00000022e-09,,
"SPI","result",1.47740763,0.00029988,0x00,0xA5
"SPI","result",1.47775437,0.000278376,0x00,0x85
"SPI","result",1.47805916,0.000275492,0x00,0x10
"SPI","result",1.47836105,0.00025888,0x00,0x6F
"SPI","disable",1.47868414,4.00000022e-09,,
"SPI","enable",1.48239274,3.99999999e-09,,
"SPI","result",1.48239427,0.000299888,0x00,0xA5
"SPI","result",1.48274102,0.0002784,0x00,0x85
"SPI","result",1.48304583,0.000259936,0x00,0x10
"SPI","result",1.48334775,0.000258876,0x00,0x6F
"SPI","disable",1.48367084,3.99999999e-09,,
"SPI","enable",1.48739472,3.99999999e-09,,
"SPI","result",1.48739625,0.000299872,0x00,0xA5
"SPI","result",1.48774298,0.000278396,0x00,0x85
"SPI","result",1.48804779,0.000259932,0x00,0x10
"SPI","result",1.48833412,0.000274308,0x00,0x6F
"SPI","disable",1.48867265,3.99999976e-09,,
"SPI","enable",1.49236554,3.99999999e-09,,
"SPI","result",1.49236706,0.000315448,0x00,0xA5
"SPI","result",1.49272937,0.00027838,0x00,0x85
"SPI","result",1.49303416,0.000259896,0x00,0x10
"SPI","result",1.49332046,0.00027446,0x00,0x6F
"SPI","disable",1.49365914,4.00000022e-09,,
"SPI","enable",1.49735216,3.99999976e-09,,
"SPI","result",1.49735368,0.000315468,0x00,0xA5
"SPI","result",1.49771602,0.000262828,0x00,0x85
"SPI","result",1.49802084,0.000259948,0x00,0x10
"SPI","result",1.4983072,0.0002745,0x00,0x6F
"SPI","disable",1.49864592,3.99999976e-09,,
"SPI","enable",1.50233921,3.99999999e-09,,
"SPI","result",1.50234074,0.000315316,0x00,0xA5
"SPI","result",1.50270292,0.0002628,0x00,0x85
"SPI","result",1.50299213,0.000275528,0x00,0x10
"SPI","result",1.50329406,0.000258908,0x00,0x6F
"SPI","disable",1.50363277,3.99999999e-09,,
"SPI","enable",1.50732601,3.99999999e-09,,
"SPI","result",1.50732754,0.000315488,0x00,0xA5
"SPI","result",1.50768989,0.000262832,0x00,0x85
"SPI","result",1.50797913,0.000275532,0x00,0x10
"SPI","result",1.50828108,0.0002589,0x00,0x6F
"SPI","disable",1.5086042,3.99999999e-09,,
"SPI","enable",1.51231293,3.99999999e-09,,
"SPI","result",1.51231445,0.000299872,0x00,0xA5
"SPI","result",1.51266118,0.00027838,0x00,0x85
"SPI","result",1.51296597,0.000275504,0x00,0x10
"SPI","result",1.51326788,0.000258876,0x00,0x6F
"SPI","disable",1.51359097,3.99999999e-09,,
"SPI","enable",1.51729974,3.99999999e-09,,
"SPI","result",1.51730126,0.000299904,0x00,0xA5
"SPI","result",1.51764803,0.000278412,0x00,0x85
"SPI","result",1.51795286,0.00025996,0x00,0x10
"SPI","result",1.51825481,0.000258912,0x00,0x6F
"SPI","disable",1.51857795,4.00000022e-09,,
"SPI","enable",1.52230225,3.99999999e-09,,
"SPI","result",1.52230378,0.000304144,0x00,0xA5
"SPI","result",1.52265479,0.000278392,0x00,0x85
"SPI","result",1.52295959,0.000259936,0x00,0x10
"SPI","result",1.52324594,0.000274404,0x00,0x6F
"SPI","disable",1.52358456,3.99999999e-09,,
"SPI","enable",1.52727335,3.99999999e-09,,
"SPI","result",1.52727487,0.000315452,0x00,0xA5
"SPI","result",1.52763718,0.000278376,0x00,0x85
"SPI","result",1.52794197,0.00025994,0x00,0x10
"SPI","result",1.52822832,0.000274452,0x00,0x6F
"SPI","disable",1.52856698,3.99999976e-09,,
"SPI","enable",1.53225986,4.00000022e-09,,
"SPI","result",1.53226138,0.000315448,0x00,0xA5
"SPI","result",1.5326237,0.000262808,0x00,0x85
"SPI","result",1.5329285,0.000259932,0x00,0x10
"SPI","result",1.53321484,0.000274484,0x00,0x6F
"SPI","disable",1.53355353,4.00000022e-09,,
"SPI","enable",1.53724667,3.99999999e-09,,
"SPI","result",1.5372482,0.000315288,0x00,0xA5
"SPI","result",1.53761035,0.000262816,0x00,0x85
"SPI","result",1.53789957,0.000275516,0x00,0x10
"SPI","result",1.5382015,0.000258896,0x00,0x6F
"SPI","disable",1.53854019,3.99999999e-09,,
"SPI","enable",1.54223325,3.99999999e-09,,
"SPI","result",1.54223478,0.000315468,0x00,0xA5
"SPI","result",1.5425971,0.000262808,0x00,0x85
"SPI","result",1.54288632,0.000275528,0x00,0x10
"SPI","result",1.54318826,0.000258924,0x00,0x6F
"SPI","disable",1.54351141,3.99999999e-09,,
"SPI","enable",1.54722006,4.00000022e-09,,
"SPI","result",1.54722159,0.000299868,0x00,0xA5
"SPI","result",1.54756832,0.000278392,0x00,0x85
"SPI","result",1.54787312,0.000275516,0x00,0x10
"SPI","result",1.54817504,0.000258904,0x00,0x6F
"SPI","disable",1.54849816,4.00000022e-09,,
"SPI","enable",1.55220695,3.99999999e-09,,
"SPI","result",1.55220847,0.000299884,0x00,0xA5
"SPI","result",1.55255522,0.000278428,0x00,0x85
"SPI","result",1.55286006,0.000259952,0x00,0x10
"SPI","result",1.553162,0.000258904,0x00,0x6F
"SPI","disable",1.55348513,3.99999999e-09,,
"SPI","enable",1.55720927,4.00000022e-09,,
"SPI","result",1.5572108,0.00029988,0x00,0xA5
"SPI","result",1.55755754,0.000278396,0x00,0x85
"SPI","result",1.55786234,0.000259924,0x00,0x10
"SPI","result",1.55814868,0.000274324,0x00,0x6F
"SPI","disable",1.55848721,3.99999999e-09,,
"SPI","enable",1.5621802,3.99999999e-09,,
"SPI","result",1.56218172,0.000315444,0x00,0xA5
"SPI","result",1.56254403,0.000278396,0x00,0x85
"SPI","result",1.56284884,0.000259952,0x00,0x10
"SPI","result",1.5631352,0.000274492,0x00,0x6F
"SPI","disable",1.56347391,4.00000022e-09,,
"SPI","enable",1.56716702,4.00000022e-09,,
"SPI","result",1.56716855,0.000315456,0x00,0xA5
"SPI","result",1.56753087,0.000262804,0x00,0x85
"SPI","result",1.56783566,0.00025994,0x00,0x10
"SPI","result",1.56812201,0.000274472,0x00,0x6F
"SPI","disable",1.5684607,3.99999976e-09,,
"SPI","enable",1.57215366,3.99999999e-09,,
"SPI","result",1.57215519,0.000315296,0x00,0xA5
"SPI","result",1.57251734,0.000262796,0x00,0x85
"SPI","result",1.57280655,0.00027548,0x00,0x10
"SPI","result",1.57310843,0.000258888,0x00,0x6F
"SPI","disable",1.57344711,3.99999999e-09,,
"SPI","enable",1.57714034,3.99999999e-09,,
"SPI","result",1.57714186,0.000315456,0x00,0xA5
"SPI","result",1.57750418,0.000262804,0x00,0x85
"SPI","result",1.5777934,0.000275476,0x00,0x10
"SPI","result",1.57809528,0.000258872,0x00,0x6F
"SPI","disable",1.57841835,4.00000022e-09,,
"SPI","enable",1.58212654,3.99999999e-09,,
"SPI","result",1.58212806,0.000299876,0x00,0xA5
