name,type,start_time,duration,"mosi","miso"
"SPI","enable",0.065780556,4e-09,,
"SPI","result",0.06594948,0.034870584,0x00,0xA5
"SPI","result",0.105927768,0.029382188,0x00,0xA1
"SPI","result",0.138189608,0.03013714,0x00,0x00
"SPI","result",0.171584188,0.030038936,0x00,0xFE
"SPI","disable",0.208869248,4.00000002e-09,,
"SPI","enable",0.212060304,3.99999999e-09,,
"SPI","result",0.21222922,0.03339008,0x00,0xA5
"SPI","result",0.250727544,0.030863592,0x00,0xA1
"SPI","result",0.284470644,0.030148872,0x00,0x00
"SPI","result",0.317498532,0.02894854,0x00,0xFE
"SPI","disable",0.353316688,3.99999999e-09,,
"SPI","enable",0.356886576,3.99999999e-09,,
"SPI","result",0.357055496,0.034508116,0x00,0xA5
"SPI","result",0.397049728,0.030466772,0x00,0xA1
"SPI","result",0.430395452,0.029055748,0x00,0x00
"SPI","result",0.462330408,0.030420272,0x00,0xFE
"SPI","disable",0.49962,3.99999999e-09,,
"SPI","enable",0.502811936,3.99999999e-09,,
"SPI","result",0.502980908,0.0348862,0x00,0xA5
"SPI","result",0.542975076,0.029388764,0x00,0xA1
"SPI","result",0.575243452,0.030533076,0x00,0x00
"SPI","result",0.608656428,0.03042022,0x00,0xFE
"SPI","disable",0.645945872,3.99999999e-09,,
"SPI","enable",0.649138072,3.99999999e-09,,
"SPI","result",0.649307004,0.03342248,0x00,0xA5
"SPI","result",0.687836876,0.030827576,0x00,0xA1
"SPI","result",0.721543636,0.030498024,0x00,0x00
"SPI","result",0.754921468,0.028579864,0x00,0xFE
"SPI","disable",0.790748752,3.99999999e-09,,
"SPI","enable",0.795580784,3.99999999e-09,,
"SPI","result",0.795749696,0.034887772,0x00,0xA5
"SPI","result",0.83574514,0.0308468,0x00,0xA1
"SPI","result",0.869471444,0.028691528,0x00,0x00
"SPI","result",0.90140482,0.030043224,0x00,0xFE
"SPI","disable",0.938695992,3.99999999e-09,,
"SPI","enable",0.94188794,3.99999999e-09,,
"SPI","result",0.942056876,0.034872224,0x00,0xA5
"SPI","result",0.982037048,0.029022496,0x00,0xA1
"SPI","result",1.0143171,0.030139172,0x00,0x08
"SPI","result",1.04733614,0.028959908,0x00,0xF6
"SPI","disable",1.08462977,3.99999999e-09,,
"SPI","enable",1.11422284,3.99999976e-09,,
"SPI","disable",1.11546032,3.99999976e-09,,
"SPI","enable",1.11553522,3.99999999e-09,,
"SPI","result",1.11556156,0.000303452,0x00,0xA5
"SPI","result",1.11591188,0.000278428,0x00,0xA1
"SPI","result",1.11621672,0.000259976,0x00,0x08
"SPI","result",1.1165187,0.000258944,0x00,0xF6
"SPI","disable",1.11684188,3.99999999e-09,,
"SPI","enable",1.11700231,3.99999999e-09,,
"SPI","result",1.11718302,0.00029996,0x00,0x5A
"SPI","result",1.11756361,0.000299516,0x00,0x10
"SPI","result",1.11789855,0.000315372,0x00,0x07
"SPI","result",1.11824934,0.000315204,0x00,0x03
"SPI","disable",1.11859768,3.99999976e-09,,
"SPI","enable",1.11865782,4.00000022e-09,,
"SPI","result",1.11865935,0.00029992,0x00,0xA5
"SPI","result",1.11900614,0.000278416,0x00,0xA1
"SPI","result",1.11931097,0.000275572,0x00,0x08
"SPI","result",1.11961296,0.000258952,0x00,0xF6
"SPI","disable",1.11993613,3.99999999e-09,,
"SPI","enable",1.12058704,3.99999976e-09,,
"SPI","result",1.12058856,0.00029992,0x00,0xA5
"SPI","result",1.12093535,0.000278404,0x00,0xA1
"SPI","result",1.12124016,0.000259964,0x00,0x08
"SPI","result",1.12152654,0.000274516,0x00,0xF6
"SPI","disable",1.12186529,4.00000022e-09,,
"SPI","enable",1.12557415,3.99999976e-09,,
"SPI","result",1.12557568,0.00031538,0x00,0xA5
"SPI","result",1.12593792,0.000278444,0x00,0xA1
"SPI","result",1.12624278,0.00025998,0x00,0x08
"SPI","result",1.12652918,0.0002744,0x00,0xF6
"SPI","disable",1.12686781,3.99999999e-09,,
"SPI","enable",1.1305619,3.99999999e-09,,
"SPI","result",1.13056343,0.000315396,0x00,0xA5
"SPI","result",1.1309257,0.000278472,0x00,0xA1
"SPI","result",1.13123059,0.00026,0x00,0x08
"SPI","result",1.131517,0.000274392,0x00,0xF6
"SPI","disable",1.13185563,3.99999999e-09,,
"SPI","enable",1.13554978,3.99999999e-09,,
"SPI","result",1.13555131,0.00031552,0x00,0xA5
"SPI","result",1.13591371,0.000262872,0x00,0xA1
"SPI","result",1.13620299,0.000275592,0x00,0x08
"SPI","result",1.136505,0.000274564,0x00,0xF6
"SPI","disable",1.13684381,3.99999976e-09,,
"SPI","enable",1.14053784,3.99999999e-09,,
"SPI","result",1.14053937,0.000315512,0x00,0xA5
"SPI","result",1.14090176,0.00026284,0x00,0xA1
"SPI","result",1.14119101,0.00027554,0x00,0x08
"SPI","result",1.14149296,0.00025894,0x00,0xF6
"SPI","disable",1.14183171,3.99999976e-09,,
"SPI","enable",1.14552527,3.99999999e-09,,
"SPI","result",1.1455268,0.000315532,0x00,0xA5
"SPI","result",1.1458892,0.000262848,0x00,0xA1
"SPI","result",1.14617845,0.000275536,0x00,0x08
"SPI","result",1.1464804,0.000258932,0x00,0xF6
"SPI","disable",1.14680356,4.00000022e-09,,
"SPI","enable",1.15051316,3.99999999e-09,,
"SPI","result",1.15051469,0.000299976,0x00,0xA5
"SPI","result",1.15086154,0.00027846,0x00,0xA1
"SPI","result",1.15116642,0.0002756,0x00,0x08
"SPI","result",1.15146844,0.000258976,0x00,0xF6
"SPI","disable",1.15179165,4.00000022e-09,,
"SPI","enable",1.15550138,3.99999999e-09,,
"SPI","result",1.15550291,0.00029992,0x00,0xA5
"SPI","result",1.1558497,0.000278444,0x00,0xA1
"SPI","result",1.15615456,0.00025998,0x00,0x08
"SPI","result",1.15644096,0.000274392,0x00,0xF6
"SPI","disable",1.15677959,3.99999976e-09,,
"SPI","enable",1.16048924,3.99999976e-09,,
"SPI","result",1.16049076,0.000315544,0x00,0xA5
"SPI","result",1.16085319,0.000278476,0x00,0xA1
"SPI","result",1.16115808,0.00026,0x00,0x08
"SPI","result",1.1614445,0.00027456,0x00,0xF6
"SPI","disable",1.16178329,3.99999999e-09,,
"SPI","enable",1.16547716,4.00000022e-09,,
"SPI","result",1.16547869,0.00031554,0x00,0xA5
"SPI","result",1.16584111,0.000278328,0x00,0xA1
"SPI","result",1.16614586,0.000260004,0x00,0x08
"SPI","result",1.16643227,0.000274532,0x00,0xF6
"SPI","disable",1.16677104,3.99999999e-09,,
"SPI","enable",1.17046509,3.99999976e-09,,
"SPI","result",1.17046661,0.000315524,0x00,0xA5
"SPI","result",1.17082901,0.000262876,0x00,0xA1
"SPI","result",1.1711183,0.000275592,0x00,0x08
"SPI","result",1.17142032,0.000274412,0x00,0xF6
"SPI","disable",1.17175897,3.99999976e-09,,
"SPI","enable",1.175453,3.99999999e-09,,
"SPI","result",1.17545453,0.000315544,0x00,0xA5
"SPI","result",1.17581695,0.000262884,0x00,0xA1
"SPI","result",1.17610626,0.000275604,0x00,0x08
"SPI","result",1.17640828,0.000258968,0x00,0xF6
"SPI","disable",1.17674706,4.00000022e-09,,
"SPI","enable",1.18044112,3.99999999e-09,,
"SPI","result",1.18044264,0.00031554,0x00,0xA5
"SPI","result",1.18080506,0.000262892,0x00,0xA1
"SPI","result",1.18109437,0.000275444,0x00,0x08
"SPI","result",1.18139623,0.00025896,0x00,0xF6
"SPI","disable",1.18171942,4.00000022e-09,,
"SPI","enable",1.18542897,4.00000022e-09,,
"SPI","result",1.1854305,0.000299948,0x00,0xA5
"SPI","result",1.18577732,0.000278472,0x00,0xA1
"SPI","result",1.18608221,0.000275416,0x00,0x08
"SPI","result",1.18638404,0.000258956,0x00,0xF6
"SPI","disable",1.18670722,3.99999999e-09,,
"SPI","enable",1.19041731,4.00000022e-09,,
"SPI","result",1.19041884,0.000299972,0x00,0xA5
"SPI","result",1.19076569,0.000278476,0x00,0xA1
"SPI","result",1.19107058,0.000260024,0x00,0x08
"SPI","result",1.19135702,0.00027458,0x00,0xF6
"SPI","disable",1.19169585,4.00000022e-09,,
"SPI","enable",1.19540537,3.99999976e-09,,
"SPI","result",1.19540689,0.00031554,0x00,0xA5
"SPI","result",1.19576932,0.000282844,0x00,0xA1
"SPI","result",1.19607858,0.000260024,0x00,0x08
"SPI","result",1.19636502,0.000274584,0x00,0xF6
"SPI","disable",1.19670385,3.99999976e-09,,
"SPI","enable",1.2003939,3.99999976e-09,,
"SPI","result",1.20039542,0.000315548,0x00,0xA5
"SPI","result",1.20075784,0.000278464,0x00,0xA1
"SPI","result",1.20106272,0.000259976,0x00,0x08
"SPI","result",1.20134912,0.000274392,0x00,0xF6
"SPI","disable",1.20168774,4.00000022e-09,,
"SPI","enable",1.2053818,4.00000022e-09,,
"SPI","result",1.20538332,0.000315552,0x00,0xA5
"SPI","result",1.20574575,0.000262876,0x00,0xA1
"SPI","result",1.20603504,0.000275592,0x00,0x08
"SPI","result",1.20633705,0.000274552,0x00,0xF6
"SPI","disable",1.20667584,4.00000022e-09,,
"SPI","enable",1.21036967,3.99999976e-09,,
"SPI","result",1.21037119,0.000315556,0x00,0xA5
"SPI","result",1.21073362,0.000262884,0x00,0xA1
"SPI","result",1.21102292,0.000275444,0x00,0x08
"SPI","result",1.21132478,0.000258976,0x00,0xF6
"SPI","disable",1.2116635,4.00000022e-09,,
"SPI","enable",1.21535775,3.99999976e-09,,
"SPI","result",1.21535928,0.000315544,0x00,0xA5
"SPI","result",1.2157217,0.00026288,0x00,0xA1
"SPI","result",1.216011,0.000275576,0x00,0x08
"SPI","result",1.21631299,0.000258968,0x00,0xF6
"SPI","disable",1.21663619,4.00000022e-09,,
"SPI","enable",1.22034594,4.00000022e-09,,
"SPI","result",1.22034747,0.000299964,0x00,0xA5
"SPI","result",1.22069431,0.000278316,0x00,0xA1
"SPI","result",1.22099904,0.000275616,0x00,0x08
"SPI","result",1.22130108,0.000258972,0x00,0xF6
"SPI","disable",1.22162429,3.99999999e-09,,
"SPI","enable",1.2253343,3.99999999e-09,,
"SPI","result",1.22533582,0.000299976,0x00,0xA5
"SPI","result",1.22568267,0.00027848,0x00,0xA1
"SPI","result",1.22598757,0.000260012,0x00,0x08
"SPI","result",1.226274,0.000274596,0x00,0xF6
"SPI","disable",1.22661284,3.99999999e-09,,
"SPI","enable",1.23032233,3.99999976e-09,,
"SPI","result",1.23032386,0.000315524,0x00,0xA5
"SPI","result",1.23068625,0.00027844,0x00,0xA1
"SPI","result",1.23099111,0.000260004,0x00,0x08
"SPI","result",1.23127753,0.000274544,0x00,0xF6
"SPI","disable",1.2316163,3.99999976e-09,,
"SPI","enable",1.23531041,3.99999976e-09,,
"SPI","result",1.23531194,0.000315552,0x00,0xA5
"SPI","result",1.23567437,0.0002783,0x00,0xA1
"SPI","result",1.23597908,0.000260008,0x00,0x08
"SPI","result",1.23626551,0.000274572,0x00,0xF6
"SPI","disable",1.23660432,3.99999976e-09,,
"SPI","enable",1.24029846,3.99999976e-09,,
"SPI","result",1.24029999,0.000315536,0x00,0xA5
"SPI","result",1.2406624,0.000262876,0x00,0xA1
"SPI","result",1.24096712,0.000259984,0x00,0x08
"SPI","result",1.24125352,0.000274528,0x00,0xF6
"SPI","disable",1.24159228,3.99999999e-09,,
"SPI","enable",1.24528638,3.99999999e-09,,
"SPI","result",1.2452879,0.000315388,0x00,0xA5
"SPI","result",1.24565017,0.000262904,0x00,0xA1
"SPI","result",1.2459395,0.000275612,0x00,0x08
"SPI","result",1.24624152,0.000258992,0x00,0xF6
"SPI","disable",1.2465802,3.99999976e-09,,
"SPI","enable",1.25027484,3.99999999e-09,,
"SPI","result",1.25027636,0.000315428,0x00,0xA5
"SPI","result",1.25063868,0.000262912,0x00,0xA1
"SPI","result",1.25092801,0.000275452,0x00,0x08
"SPI","result",1.25122988,0.000258996,0x00,0xF6
"SPI","disable",1.25155311,3.99999999e-09,,
"SPI","enable",1.2552632,4.00000022e-09,,
"SPI","result",1.25526472,0.000299968,0x00,0xA5
"SPI","result",1.25561157,0.000278476,0x00,0xA1
"SPI","result",1.25591646,0.000275456,0x00,0x08
"SPI","result",1.25621834,0.000258984,0x00,0xF6
"SPI","disable",1.25654157,3.99999976e-09,,
"SPI","enable",1.26025132,4.00000022e-09,,
"SPI","result",1.26025284,0.000299948,0x00,0xA5
"SPI","result",1.26059967,0.000278484,0x00,0xA1
"SPI","result",1.26090457,0.000260024,0x00,0x08
"SPI","result",1.26119101,0.000274572,0x00,0xF6
"SPI","disable",1.26152983,3.99999999e-09,,
"SPI","enable",1.26523985,3.99999976e-09,,
"SPI","result",1.26525696,0.000299972,0x00,0xA5
"SPI","result",1.26560381,0.000278472,0x00,0xA1
"SPI","result",1.2659087,0.000260016,0x00,0x08
"SPI","result",1.26619513,0.000274584,0x00,0xF6
"SPI","disable",1.26653395,3.99999999e-09,,
"SPI","enable",1.27022777,3.99999999e-09,,
"SPI","result",1.27022929,0.000315532,0x00,0xA5
"SPI","result",1.2705917,0.000278468,0x00,0xA1
"SPI","result",1.27089658,0.00026,0x00,0x08
"SPI","result",1.271183,0.000274564,0x00,0xF6
"SPI","disable",1.2715218,3.99999999e-09,,
"SPI","enable",1.27521582,4.00000022e-09,,
"SPI","result",1.27521734,0.000315556,0x00,0xA5
"SPI","result",1.27557978,0.000262884,0x00,0xA1
"SPI","result",1.27588452,0.000260032,0x00,0x08
"SPI","result",1.27617097,0.000274568,0x00,0xF6
"SPI","disable",1.27650977,4.00000022e-09,,
"SPI","enable",1.28020396,4.00000022e-09,,
"SPI","result",1.28020549,0.000315392,0x00,0xA5
"SPI","result",1.28056776,0.000262896,0x00,0xA1
"SPI","result",1.28085708,0.000275588,0x00,0x08
"SPI","result",1.28115908,0.000258984,0x00,0xF6
"SPI","disable",1.28149773,3.99999999e-09,,
"SPI","enable",1.28519191,3.99999999e-09,,
"SPI","result",1.28519343,0.00031554,0x00,0xA5
"SPI","result",1.28555585,0.000262872,0x00,0xA1
"SPI","result",1.28584514,0.000275584,0x00,0x08
"SPI","result",1.28614714,0.000258972,0x00,0xF6
"SPI","disable",1.28647034,3.99999976e-09,,
"SPI","enable",1.2901803,3.99999999e-09,,
"SPI","result",1.29018183,0.000299952,0x00,0xA5
"SPI","result",1.29052866,0.000278332,0x00,0xA1
"SPI","result",1.29083341,0.000275592,0x00,0x08
"SPI","result",1.29113542,0.000258964,0x00,0xF6
"SPI","disable",1.29145861,3.99999999e-09,,
"SPI","enable",1.2951685,3.99999999e-09,,
"SPI","result",1.29517002,0.000299988,0x00,0xA5
"SPI","result",1.29551689,0.000278484,0x00,0xA1
"SPI","result",1.29582179,0.000259996,0x00,0x08
"SPI","result",1.29612364,0.000258992,0x00,0xF6
"SPI","disable",1.29644688,3.99999999e-09,,
"SPI","enable",1.30017231,4.00000022e-09,,
"SPI","result",1.30017384,0.000299952,0x00,0xA5
"SPI","result",1.30052067,0.0002784,0x00,0xA1
"SPI","result",1.30082548,0.000259964,0x00,0x08
"SPI","result",1.30111186,0.000274532,0x00,0xF6
"SPI","disable",1.30145062,4.00000022e-09,,
"SPI","enable",1.30514482,3.99999976e-09,,
"SPI","result",1.30514635,0.000315468,0x00,0xA5
"SPI","result",1.30550869,0.000278472,0x00,0xA1
"SPI","result",1.30581358,0.000260012,0x00,0x08
"SPI","result",1.30610001,0.000274416,0x00,0xF6
"SPI","disable",1.30643866,3.99999999e-09,,
"SPI","enable",1.31013299,3.99999999e-09,,
"SPI","result",1.31013452,0.00031554,0x00,0xA5
"SPI","result",1.31049694,0.000262892,0x00,0xA1
"SPI","result",1.31080184,0.00026,0x00,0x08
"SPI","result",1.31108825,0.000274544,0x00,0xF6
"SPI","disable",1.31142703,3.99999999e-09,,
"SPI","enable",1.31512098,4.00000022e-09,,
"SPI","result",1.3151225,0.000315584,0x00,0xA5
"SPI","result",1.31548496,0.000262916,0x00,0xA1
"SPI","result",1.3157743,0.000275476,0x00,0x08
"SPI","result",1.3160762,0.000259004,0x00,0xF6
"SPI","disable",1.31641503,3.99999976e-09,,
"SPI","enable",1.32010927,3.99999976e-09,,
"SPI","result",1.3201108,0.000315528,0x00,0xA5
"SPI","result",1.3204732,0.000262888,0x00,0xA1
"SPI","result",1.3207625,0.000275592,0x00,0x08
"SPI","result",1.32106451,0.000258952,0x00,0xF6
"SPI","disable",1.32138769,3.99999999e-09,,
"SPI","enable",1.32509742,3.99999999e-09,,
"SPI","result",1.32509894,0.000299964,0x00,0xA5
"SPI","result",1.32544578,0.00027848,0x00,0xA1
"SPI","result",1.32575068,0.000275608,0x00,0x08
"SPI","result",1.32605271,0.000258996,0x00,0xF6
"SPI","disable",1.32637595,3.99999976e-09,,
"SPI","enable",1.33008567,4.00000022e-09,,
"SPI","result",1.33008719,0.00029998,0x00,0xA5
"SPI","result",1.33043406,0.00027848,0x00,0xA1
"SPI","result",1.33073895,0.000259972,0x00,0x08
"SPI","result",1.33104092,0.000258932,0x00,0xF6
"SPI","disable",1.33136408,3.99999999e-09,,
"SPI","enable",1.3350894,3.99999999e-09,,
"SPI","result",1.33509092,0.000299964,0x00,0xA5
"SPI","result",1.33543776,0.000278468,0x00,0xA1
"SPI","result",1.33574265,0.000260008,0x00,0x08
"SPI","result",1.33602907,0.000274564,0x00,0xF6
"SPI","disable",1.33636788,3.99999999e-09,,
"SPI","enable",1.34006169,3.99999999e-09,,
"SPI","result",1.34006321,0.000315384,0x00,0xA5
"SPI","result",1.34042547,0.000278444,0x00,0xA1
"SPI","result",1.34073033,0.000259992,0x00,0x08
"SPI","result",1.34101674,0.000274376,0x00,0xF6
"SPI","disable",1.34135534,4.00000022e-09,,
"SPI","enable",1.3450497,3.99999976e-09,,
"SPI","result",1.34505122,0.00031554,0x00,0xA5
"SPI","result",1.34541364,0.000262872,0x00,0xA1
"SPI","result",1.3457185,0.000260012,0x00,0x08
"SPI","result",1.34600494,0.000274576,0x00,0xF6
"SPI","disable",1.34634375,3.99999999e-09,,
"SPI","enable",1.35003812,3.99999999e-09,,
"SPI","result",1.35003965,0.000315528,0x00,0xA5
"SPI","result",1.35040205,0.000262864,0x00,0xA1
"SPI","result",1.35069134,0.000275592,0x00,0x08
"SPI","result",1.35099334,0.00025898,0x00,0xF6
"SPI","disable",1.35133214,3.99999999e-09,,
"SPI","enable",1.355026,3.99999999e-09,,
"SPI","result",1.35502752,0.00031554,0x00,0xA5
"SPI","result",1.35538994,0.000262864,0x00,0xA1
"SPI","result",1.35567922,0.000275564,0x00,0x08
"SPI","result",1.3559812,0.000258952,0x00,0xF6
"SPI","disable",1.35630438,3.99999999e-09,,
"SPI","enable",1.36001365,3.99999976e-09,,
"SPI","result",1.36001517,0.000299976,0x00,0xA5
"SPI","result",1.36036203,0.000278452,0x00,0xA1
"SPI","result",1.3606669,0.000275572,0x00,0x08
"SPI","result",1.36096888,0.000258948,0x00,0xF6
"SPI","disable",1.36129206,3.99999999e-09,,
"SPI","enable",1.36500168,3.99999999e-09,,
"SPI","result",1.3650032,0.000299984,0x00,0xA5
"SPI","result",1.36535006,0.000278472,0x00,0xA1
"SPI","result",1.36565495,0.000259992,0x00,0x08
"SPI","result",1.36595694,0.000258976,0x00,0xF6
"SPI","disable",1.36628015,3.99999999e-09,,
"SPI","enable",1.37000565,3.99999976e-09,,
"SPI","result",1.37000717,0.000299992,0x00,0xA5
"SPI","result",1.37035404,0.000278476,0x00,0xA1
"SPI","result",1.37065893,0.000260028,0x00,0x08
"SPI","result",1.37094538,0.000274396,0x00,0xF6
"SPI","disable",1.371284,3.99999976e-09,,
"SPI","enable",1.37497798,3.99999976e-09,,
"SPI","result",1.37497951,0.000315536,0x00,0xA5
"SPI","result",1.37534192,0.000278476,0x00,0xA1
"SPI","result",1.37564682,0.000259984,0x00,0x08
"SPI","result",1.37593322,0.000274384,0x00,0xF6
"SPI","disable",1.37627182,3.99999999e-09,,
"SPI","enable",1.3799658,3.99999999e-09,,
"SPI","result",1.37996732,0.000315584,0x00,0xA5
"SPI","result",1.38032979,0.00026288,0x00,0xA1
"SPI","result",1.38063467,0.000259992,0x00,0x08
"SPI","result",1.38092107,0.00027454,0x00,0xF6
"SPI","disable",1.38125985,3.99999999e-09,,
"SPI","enable",1.38495363,4.00000022e-09,,
"SPI","result",1.38495516,0.000315532,0x00,0xA5
"SPI","result",1.38531756,0.000262872,0x00,0xA1
"SPI","result",1.38560685,0.000275588,0x00,0x08
"SPI","result",1.38590886,0.000258976,0x00,0xF6
"SPI","disable",1.38624765,3.99999999e-09,,
"SPI","enable",1.38994169,3.99999976e-09,,
"SPI","result",1.38994322,0.000315524,0x00,0xA5
"SPI","result",1.39030562,0.000262868,0x00,0xA1
"SPI","result",1.3905949,0.000275572,0x00,0x08
"SPI","result",1.39089688,0.00025894,0x00,0xF6
"SPI","disable",1.39122006,3.99999976e-09,,
"SPI","enable",1.39492939,3.99999999e-09,,
"SPI","result",1.39493092,0.000299928,0x00,0xA5
"SPI","result",1.39527772,0.000278436,0x00,0xA1
"SPI","result",1.39558257,0.000275568,0x00,0x08
"SPI","result",1.39588456,0.00025896,0x00,0xF6
"SPI","disable",1.39620774,3.99999976e-09,,
"SPI","enable",1.39991685,4.00000022e-09,,
"SPI","result",1.39991837,0.00029996,0x00,0xA5
"SPI","result",1.40026521,0.000278468,0x00,0xA1
"SPI","result",1.4005701,0.000260008,0x00,0x08
"SPI","result",1.40087212,0.000258968,0x00,0xF6
"SPI","disable",1.40119531,3.99999976e-09,,
"SPI","enable",1.4049206,4.00000022e-09,,
"SPI","result",1.40492213,0.00029996,0x00,0xA5
"SPI","result",1.40526896,0.000278464,0x00,0xA1
"SPI","result",1.40557384,0.00026,0x00,0x08
"SPI","result",1.40586025,0.000274396,0x00,0xF6
"SPI","disable",1.40619888,3.99999976e-09,,
"SPI","enable",1.4098926,3.99999976e-09,,
"SPI","result",1.40989412,0.00031552,0x00,0xA5
"SPI","result",1.41025652,0.00027846,0x00,0xA1
"SPI","result",1.4105614,0.000259988,0x00,0x08
"SPI","result",1.4108478,0.000274396,0x00,0xF6
"SPI","disable",1.41118643,3.99999999e-09,,
"SPI","enable",1.41488035,3.99999976e-09,,
"SPI","result",1.41488187,0.0003155,0x00,0xA5
"SPI","result",1.41524424,0.000262828,0x00,0xA1
"SPI","result",1.41554906,0.000259964,0x00,0x08
"SPI","result",1.41583544,0.000274548,0x00,0xF6
"SPI","disable",1.41617422,4.00000022e-09,,
"SPI","enable",1.41986821,3.99999976e-09,,
"SPI","result",1.41986973,0.000315548,0x00,0xA5
"SPI","result",1.42023216,0.000262876,0x00,0xA1
"SPI","result",1.42052145,0.0002754,0x00,0x08
"SPI","result",1.42082326,0.00025896,0x00,0xF6
"SPI","disable",1.42116204,3.99999999e-09,,
"SPI","enable",1.42485615,4.00000022e-09,,
"SPI","result",1.42485767,0.000315556,0x00,0xA5
"SPI","result",1.42522011,0.000262872,0x00,0xA1
